time,V(vout),V(n002)
0.000000000000000e+000,6.166793e-002,-6.428333e-014
1.136459180117733e-005,6.624748e-002,7.134517e-003
3.136459180108631e-005,7.447788e-002,1.957964e-002
5.136459180099529e-005,8.280110e-002,3.171599e-002
7.136459180090427e-005,9.102964e-002,4.335215e-002
9.136459180081324e-005,9.894346e-002,5.430463e-002
1.113645918007222e-004,1.063391e-001,6.440069e-002
1.313645918006312e-004,1.130339e-001,7.348111e-002
1.513645918005402e-004,1.188675e-001,8.140269e-002
1.713645918004492e-004,1.237045e-001,8.804049e-002
1.913645918003581e-004,1.274351e-001,9.328986e-002
2.113645918002671e-004,1.299766e-001,9.706798e-002
2.313645918001761e-004,1.313403e-001,9.931529e-002
2.472219796099129e-004,1.315071e-001,9.998477e-002
2.639673726683167e-004,1.307151e-001,9.961516e-002
2.839673726682257e-004,1.286330e-001,9.773116e-002
3.039673726681347e-004,1.253955e-001,9.430587e-002
3.239673726680437e-004,1.210256e-001,8.939333e-002
3.439673726679526e-004,1.156240e-001,8.307100e-002
3.639673726678616e-004,1.093169e-001,7.543860e-002
3.839673726677706e-004,1.022544e-001,6.661648e-002
4.039673726676796e-004,9.460814e-002,5.674378e-002
4.239673726675886e-004,8.656953e-002,4.597619e-002
4.439673726674975e-004,7.834597e-002,3.448354e-002
4.639673726674065e-004,7.015648e-002,2.244705e-002
4.839673726673155e-004,6.222502e-002,1.005657e-002
5.039673726672245e-004,5.477056e-002,-2.492516e-003
5.239673726671335e-004,4.799322e-002,-1.500229e-002
5.439673726670424e-004,4.205642e-002,-2.727547e-002
5.639673726669514e-004,3.706773e-002,-3.911850e-002
5.839673726668604e-004,3.306431e-002,-5.034461e-002
6.039673726667694e-004,3.000974e-002,-6.077675e-002
6.239673726666783e-004,2.780548e-002,-7.025041e-002
6.439673726665873e-004,2.631280e-002,-7.861617e-002
6.639673726664963e-004,2.537631e-002,-8.574212e-002
6.839673726664053e-004,2.484279e-002,-9.151585e-002
7.039673726663143e-004,2.457468e-002,-9.584633e-002
7.239673726662232e-004,2.446156e-002,-9.866526e-002
7.439673726661322e-004,2.443108e-002,-9.992817e-002
7.627568766461756e-004,2.445648e-002,-9.967894e-002
7.827568766460846e-004,2.456505e-002,-9.788942e-002
8.027568766459936e-004,2.482799e-002,-9.455613e-002
8.227568766459026e-004,2.535881e-002,-8.973163e-002
8.427568766458116e-004,2.629828e-002,-8.349202e-002
8.627568766457205e-004,2.780519e-002,-7.593568e-002
8.827568766456295e-004,3.004202e-002,-6.718179e-002
9.027568766455385e-004,3.315415e-002,-5.736840e-002
9.227568766454475e-004,3.724382e-002,-4.665028e-002
9.427568766453565e-004,4.234648e-002,-3.519646e-002
9.627568766452654e-004,4.841900e-002,-2.318756e-002
9.827568766451744e-004,5.534372e-002,-1.081299e-002
1.002756876645083e-003,6.294500e-002,1.732110e-003
1.022756876644992e-003,7.101026e-002,1.424989e-002
1.042756876644901e-003,7.930954e-002,2.654295e-002
1.062756876644810e-003,8.761036e-002,3.841741e-002
1.082756876644719e-003,9.568794e-002,4.968600e-002
1.102756876644628e-003,1.033318e-001,6.017101e-002
1.122756876644537e-003,1.103503e-001,6.970710e-002
1.142756876644446e-003,1.165733e-001,7.814385e-002
1.162756876644355e-003,1.218545e-001,8.534823e-002
1.182756876644264e-003,1.260730e-001,9.120663e-002
1.202756876644173e-003,1.291344e-001,9.562664e-002
1.222756876644082e-003,1.309717e-001,9.853856e-002
1.242756876643991e-003,1.315529e-001,9.989646e-002
1.262306294468329e-003,1.308827e-001,9.970121e-002
1.282306294468238e-003,1.289471e-001,9.794689e-002
1.302306294468147e-003,1.258062e-001,9.464789e-002
1.322306294468056e-003,1.215254e-001,8.985624e-002
1.342306294467965e-003,1.162032e-001,8.364750e-002
1.362306294467874e-003,1.099639e-001,7.611959e-002
1.382306294467783e-003,1.029554e-001,6.739122e-002
1.402306294467692e-003,9.534788e-002,5.760006e-002
1.422306294467601e-003,8.733099e-002,4.690051e-002
1.442306294467510e-003,7.911091e-002,3.546131e-002
1.462306294467419e-003,7.090585e-002,2.346287e-002
1.482306294467328e-003,6.293958e-002,1.109440e-002
1.502306294467237e-003,5.543191e-002,-1.449037e-003
1.522306294467146e-003,4.858518e-002,-1.396962e-002
1.542306294467055e-003,4.256666e-002,-2.626989e-002
1.562306294466964e-003,3.748947e-002,-3.815587e-002
1.582306294466873e-003,3.339722e-002,-4.944011e-002
1.602306294466782e-003,3.025969e-002,-5.994465e-002
1.622306294466691e-003,2.798309e-002,-6.950383e-002
1.642306294466600e-003,2.643128e-002,-7.796688e-002
1.662306294466509e-003,2.544956e-002,-8.520036e-002
1.682306294466418e-003,2.488404e-002,-9.109017e-002
1.702306294466327e-003,2.459549e-002,-9.554344e-002
1.722306294466236e-003,2.447091e-002,-9.848993e-002
1.742306294466145e-003,2.443475e-002,-9.988318e-002
1.762138509682654e-003,2.445836e-002,-9.970929e-002
1.782138509682563e-003,2.456470e-002,-9.796809e-002
1.802138509682472e-003,2.482459e-002,-9.468187e-002
1.822138509682381e-003,2.534909e-002,-8.990245e-002
1.842138509682290e-003,2.627837e-002,-8.370522e-002
1.862138509682199e-003,2.777084e-002,-7.618791e-002
1.882138509682108e-003,2.998903e-002,-6.746907e-002
1.902138509682017e-003,3.307899e-002,-5.768620e-002
1.922138509681926e-003,3.714436e-002,-4.699359e-002
1.942138509681834e-003,4.222254e-002,-3.555986e-002
1.962138509681743e-003,4.827253e-002,-2.356533e-002
1.982138509681652e-003,5.517858e-002,-1.119916e-002
2.002138509681561e-003,6.276642e-002,1.343625e-003
2.022138509681470e-003,7.082434e-002,1.386522e-002
2.042138509681379e-003,7.912275e-002,2.616816e-002
2.062138509681288e-003,8.742917e-002,3.805840e-002
2.082138509681197e-003,9.551854e-002,4.934845e-002
2.102138509681106e-003,1.031800e-001,5.986023e-002
2.122138509681015e-003,1.102213e-001,6.942799e-002
2.142138509680924e-003,1.164718e-001,7.790083e-002
2.162138509680833e-003,1.217843e-001,8.514512e-002
2.182138509680742e-003,1.260372e-001,9.104662e-002
2.202138509680651e-003,1.291353e-001,9.551227e-002
2.222138509680560e-003,1.310108e-001,9.847163e-002
2.242138509680469e-003,1.316246e-001,9.987803e-002
2.262076021328330e-003,1.309673e-001,9.971228e-002
2.282076021328239e-003,1.290513e-001,9.797595e-002
2.302076021328148e-003,1.259231e-001,9.469449e-002
2.322076021328057e-003,1.216536e-001,8.991963e-002
2.342076021327966e-003,1.163414e-001,8.372670e-002
2.362076021327875e-003,1.101103e-001,7.621334e-002
2.382076021327784e-003,1.031080e-001,6.749804e-002
2.402076021327693e-003,9.550421e-002,5.771827e-002
2.422076021327602e-003,8.748849e-002,4.702824e-002
2.442076021327511e-003,7.926676e-002,3.559655e-002
2.462076021327420e-003,7.105704e-002,2.360349e-002
2.482076021327329e-003,6.308305e-002,1.123818e-002
2.502076021327238e-003,5.556467e-002,-1.304366e-003
2.522076021327147e-003,4.870452e-002,-1.382634e-002
2.542076021327056e-003,4.267048e-002,-2.613026e-002
2.562076021326964e-003,3.757652e-002,-3.802209e-002
2.582076021326873e-003,3.346733e-002,-4.931429e-002
2.602076021326782e-003,3.031380e-002,-5.982878e-002
2.622076021326691e-003,2.802298e-002,-6.939973e-002
2.642076021326600e-003,2.645923e-002,-7.787620e-002
2.662076021326509e-003,2.546805e-002,-8.512452e-002
2.682076021326418e-003,2.489548e-002,-9.103038e-002
2.702076021326327e-003,2.460212e-002,-9.550063e-002
2.722076021326236e-003,2.447469e-002,-9.846478e-002
2.742076021326145e-003,2.443727e-002,-9.987608e-002
2.762052747294908e-003,2.446092e-002,-9.971339e-002
2.782052747294816e-003,2.456802e-002,-9.797888e-002
2.802052747294725e-003,2.482925e-002,-9.469919e-002
2.822052747294634e-003,2.535526e-002,-8.992603e-002
2.842052747294543e-003,2.628606e-002,-8.373469e-002
2.862052747294452e-003,2.777999e-002,-7.622280e-002
2.882052747294361e-003,2.999948e-002,-6.750883e-002
2.902052747294270e-003,3.309052e-002,-5.773021e-002
2.922052747294179e-003,3.715676e-002,-4.704115e-002
2.942052747294088e-003,4.223564e-002,-3.561022e-002
2.962052747293997e-003,4.828624e-002,-2.361770e-002
2.982052747293906e-003,5.519296e-002,-1.125271e-002
3.002052747293815e-003,6.278168e-002,1.289743e-003
3.022052747293724e-003,7.084081e-002,1.381185e-002
3.042052747293633e-003,7.914085e-002,2.611614e-002
3.062052747293542e-003,8.744940e-002,3.800857e-002
3.082052747293451e-003,9.554143e-002,4.930157e-002
3.102052747293360e-003,1.032061e-001,5.981706e-002
3.122052747293269e-003,1.102511e-001,6.938920e-002
3.142052747293178e-003,1.165056e-001,7.786703e-002
3.162052747293087e-003,1.218226e-001,8.511685e-002
3.182052747292996e-003,1.260803e-001,9.102432e-002
3.202052747292905e-003,1.291834e-001,9.549630e-002
3.222052747292814e-003,1.310639e-001,9.846223e-002
3.242052747292723e-003,1.316819e-001,9.987535e-002
3.262044078593762e-003,1.310261e-001,9.971380e-002
3.282044078593671e-003,1.291122e-001,9.797997e-002
3.302044078593580e-003,1.259851e-001,9.470094e-002
3.322044078593489e-003,1.217166e-001,8.992842e-002
3.342044078593398e-003,1.164049e-001,8.373767e-002
3.362044078593307e-003,1.101739e-001,7.622633e-002
3.382044078593216e-003,1.031713e-001,6.751285e-002
3.402044078593125e-003,9.556681e-002,5.773466e-002
3.422044078593034e-003,8.754978e-002,4.704596e-002
3.442044078592943e-003,7.932609e-002,3.561531e-002
3.462044078592852e-003,7.111376e-002,2.362299e-002
3.482044078592761e-003,6.313641e-002,1.125812e-002
3.502044078592670e-003,5.561393e-002,-1.284297e-003
3.522044078592579e-003,4.874897e-002,-1.380646e-002
3.542044078592488e-003,4.270953e-002,-2.611089e-002
3.562044078592397e-003,3.760981e-002,-3.800353e-002
3.582044078592306e-003,3.349479e-002,-4.929683e-002
3.602044078592215e-003,3.033568e-002,-5.981269e-002
3.622044078592124e-003,2.803977e-002,-6.938528e-002
3.642044078592033e-003,2.647161e-002,-7.786361e-002
3.662044078591942e-003,2.547675e-002,-8.511399e-002
3.682044078591851e-003,2.490129e-002,-9.102207e-002
3.702044078591760e-003,2.460583e-002,-9.549468e-002
3.722044078591669e-003,2.447709e-002,-9.846128e-002
3.742044078591578e-003,2.443915e-002,-9.987509e-002
3.762040849801807e-003,2.446304e-002,-9.971395e-002
3.782040849801716e-003,2.457105e-002,-9.798037e-002
3.802040849801625e-003,2.483381e-002,-9.470159e-002
3.822040849801534e-003,2.536182e-002,-8.992931e-002
3.842040849801442e-003,2.629507e-002,-8.373877e-002
3.862040849801351e-003,2.779181e-002,-7.622764e-002
3.882040849801260e-003,3.001441e-002,-6.751435e-002
3.902040849801169e-003,3.310875e-002,-5.773631e-002
3.922040849801078e-003,3.717832e-002,-4.704775e-002
3.942040849800987e-003,4.226040e-002,-3.561721e-002
3.962040849800896e-003,4.831392e-002,-2.362496e-002
3.982040849800805e-003,5.522321e-002,-1.126014e-002
4.002040849800714e-003,6.281412e-002,1.282269e-003
4.022040849800623e-003,7.087512e-002,1.380445e-002
4.042040849800532e-003,7.917673e-002,2.610893e-002
4.062040849800441e-003,8.748661e-002,3.800165e-002
4.082040849800350e-003,9.557980e-002,4.929507e-002
4.102040849800259e-003,1.032455e-001,5.981107e-002
4.122040849800168e-003,1.102913e-001,6.938381e-002
4.142040849800077e-003,1.165467e-001,7.786234e-002
4.162040849799986e-003,1.218644e-001,8.511292e-002
4.182040849799895e-003,1.261228e-001,9.102123e-002
4.202040849799804e-003,1.292265e-001,9.549408e-002
4.222040849799713e-003,1.311075e-001,9.846092e-002
4.242040849799622e-003,1.317259e-001,9.987498e-002
4.262039647184412e-003,1.310699e-001,9.971401e-002
4.282039647184321e-003,1.291559e-001,9.798053e-002
4.302039647184230e-003,1.260285e-001,9.470183e-002
4.322039647184139e-003,1.217595e-001,8.992963e-002
4.342039647184048e-003,1.164473e-001,8.373919e-002
4.362039647183957e-003,1.102156e-001,7.622813e-002
4.382039647183866e-003,1.032121e-001,6.751490e-002
4.402039647183775e-003,9.560651e-002,5.773693e-002
4.422039647183684e-003,8.758817e-002,4.704841e-002
4.442039647183593e-003,7.936293e-002,3.561791e-002
4.462039647183502e-003,7.114872e-002,2.362569e-002
4.482039647183411e-003,6.316917e-002,1.126089e-002
4.502039647183320e-003,5.564414e-002,-1.281513e-003
4.522039647183229e-003,4.877628e-002,-1.380370e-002
4.542039647183138e-003,4.273364e-002,-2.610820e-002
4.562039647183047e-003,3.763051e-002,-3.800095e-002
4.582039647182956e-003,3.351205e-002,-4.929441e-002
4.602039647182865e-003,3.034960e-002,-5.981046e-002
4.622039647182774e-003,2.805063e-002,-6.938327e-002
4.642039647182683e-003,2.647976e-002,-7.786187e-002
4.662039647182592e-003,2.548262e-002,-8.511253e-002
4.682039647182501e-003,2.490530e-002,-9.102092e-002
4.702039647182410e-003,2.460846e-002,-9.549385e-002
4.722039647182319e-003,2.447885e-002,-9.846079e-002
4.742039647182228e-003,2.444058e-002,-9.987494e-002
4.762039199249113e-003,2.446469e-002,-9.971403e-002
4.782039199249022e-003,2.457344e-002,-9.798058e-002
4.802039199248931e-003,2.483741e-002,-9.470192e-002
4.822039199248840e-003,2.536707e-002,-8.992976e-002
4.842039199248749e-003,2.630235e-002,-8.373934e-002
4.862039199248658e-003,2.780146e-002,-7.622831e-002
4.882039199248567e-003,3.002671e-002,-6.751511e-002
4.902039199248476e-003,3.312390e-002,-5.773716e-002
4.922039199248385e-003,3.719636e-002,-4.704866e-002
4.942039199248294e-003,4.228123e-002,-3.561817e-002
4.962039199248203e-003,4.833731e-002,-2.362597e-002
4.982039199248112e-003,5.523316e-002,-1.126117e-002
4.999999999999893e-003,6.191918e-002,-9.780130e-014
