time,V(vout),V(n001)
0.000000000000000e+000,3.153030e+000,-4.331083e-003
8.620616360115585e-008,3.152766e+000,2.273858e-002
1.724123272023117e-007,3.152506e+000,4.980741e-002
2.586184908034676e-007,3.152248e+000,7.687543e-002
3.448246544046234e-007,3.151993e+000,1.039426e-001
4.310308180057792e-007,3.151741e+000,1.310090e-001
5.172369816069351e-007,3.151492e+000,1.580746e-001
6.034431452080907e-007,3.151246e+000,1.851393e-001
1.216464753039936e-006,3.149578e+000,3.773731e-001
2.442507968703628e-006,3.146636e+000,7.598814e-001
4.442507968703893e-006,3.142724e+000,1.373132e+000
6.442507968704159e-006,3.139882e+000,1.964666e+000
8.442507968704424e-006,3.138174e+000,2.525149e+000
1.044250796870469e-005,3.137527e+000,3.045741e+000
1.244250796870496e-005,3.137851e+000,3.518229e+000
1.444250796870522e-005,3.139042e+000,3.935163e+000
1.644250796870549e-005,3.140980e+000,4.289966e+000
1.844250796870575e-005,3.143535e+000,4.577042e+000
2.044250796870602e-005,3.146566e+000,4.791865e+000
2.244250796870628e-005,3.149925e+000,4.931046e+000
2.444250796870655e-005,3.153460e+000,4.992391e+000
2.629271891554062e-005,3.156751e+000,4.978971e+000
2.829271891554089e-005,3.160180e+000,4.888828e+000
3.029271891554115e-005,3.163328e+000,4.721514e+000
3.229271891554142e-005,3.166045e+000,4.479669e+000
3.429271891554168e-005,3.168187e+000,4.167106e+000
3.629271891554195e-005,3.169619e+000,3.788756e+000
3.829271891554222e-005,3.170217e+000,3.350586e+000
4.029271891554248e-005,3.169872e+000,2.859506e+000
4.229271891554275e-005,3.168486e+000,2.323262e+000
4.429271891554301e-005,3.165982e+000,1.750313e+000
4.629271891554328e-005,3.162297e+000,1.149700e+000
4.829271891554354e-005,3.157658e+000,5.309105e-001
4.854271891554379e-005,3.156984e+000,4.527715e-001
4.904271891554429e-005,3.155517e+000,2.961878e-001
5.004271891554356e-005,3.152529e+000,-9.056422e-003
5.005842009368940e-005,3.152482e+000,-1.398744e-002
5.034104130031003e-005,3.151651e+000,-1.027920e-001
5.062366250693065e-005,3.150851e+000,-1.915043e-001
5.090628371355128e-005,3.150082e+000,-2.801244e-001
5.118890492017191e-005,3.149343e+000,-3.686521e-001
5.147152612679254e-005,3.148636e+000,-4.570876e-001
5.175414733341316e-005,3.147959e+000,-5.454308e-001
5.203676854003379e-005,3.147314e+000,-6.336817e-001
5.403676854003406e-005,3.143306e+000,-1.250166e+000
5.603676854003432e-005,3.140341e+000,-1.846875e+000
5.803676854003459e-005,3.138523e+000,-2.414390e+000
6.003676854003485e-005,3.137782e+000,-2.943761e+000
6.203676854003512e-005,3.138032e+000,-3.426637e+000
6.403676854003539e-005,3.139171e+000,-3.855403e+000
6.603676854003565e-005,3.141082e+000,-4.223296e+000
6.803676854003592e-005,3.143636e+000,-4.524513e+000
7.003676854003618e-005,3.146696e+000,-4.754306e+000
7.203676854003645e-005,3.150115e+000,-4.909050e+000
7.403676854003671e-005,3.153739e+000,-4.986303e+000
7.603676854003698e-005,3.157413e+000,-4.984849e+000
7.803676854003724e-005,3.160980e+000,-4.904710e+000
8.003676854003751e-005,3.164286e+000,-4.747150e+000
8.203676854003777e-005,3.167179e+000,-4.514654e+000
8.403676854003804e-005,3.169514e+000,-4.210889e+000
8.603676854003831e-005,3.171155e+000,-3.840646e+000
8.803676854003857e-005,3.171978e+000,-3.409764e+000
9.003676854003884e-005,3.171870e+000,-2.925039e+000
9.203676854003910e-005,3.170734e+000,-2.394117e+000
9.403676854003937e-005,3.168487e+000,-1.825371e+000
9.603676854003963e-005,3.165067e+000,-1.227775e+000
9.828676854004015e-005,3.160056e+000,-5.327597e-001
9.891176854004077e-005,3.158306e+000,-3.372139e-001
9.916176854004102e-005,3.157562e+000,-2.588385e-001
9.966176854004152e-005,3.156046e+000,-1.019940e-001
1.004539764602568e-004,3.153639e+000,1.382154e-001
1.004660751019355e-004,3.153603e+000,1.420140e-001
1.009050829571534e-004,3.152365e+000,2.799444e-001
1.013440908123713e-004,3.151192e+000,4.174330e-001
1.017830986675891e-004,3.150085e+000,5.544796e-001
1.022221065228070e-004,3.149043e+000,6.910842e-001
1.026611143780248e-004,3.148066e+000,8.272469e-001
1.031001222332427e-004,3.147154e+000,9.629677e-001
1.035391300884606e-004,3.146307e+000,1.098247e+000
1.055391300884608e-004,3.143008e+000,1.700770e+000
1.075391300884611e-004,3.140800e+000,2.276406e+000
1.095391300884614e-004,3.139689e+000,2.816074e+000
1.115391300884616e-004,3.139592e+000,3.311262e+000
1.135391300884619e-004,3.140410e+000,3.754158e+000
1.155391300884621e-004,3.142031e+000,4.137778e+000
1.175391300884624e-004,3.144329e+000,4.456073e+000
1.195391300884627e-004,3.147168e+000,4.704021e+000
1.215391300884629e-004,3.150403e+000,4.877713e+000
1.235391300884632e-004,3.153882e+000,4.974410e+000
1.255391300884635e-004,3.157453e+000,4.992586e+000
1.273778107330342e-004,3.160680e+000,4.939753e+000
1.293778107330345e-004,3.163978e+000,4.807486e+000
1.313778107330348e-004,3.166916e+000,4.599332e+000
1.333778107330350e-004,3.169343e+000,4.318573e+000
1.353778107330353e-004,3.171121e+000,3.969638e+000
1.373778107330356e-004,3.172120e+000,3.558030e+000
1.393778107330358e-004,3.172223e+000,3.090240e+000
1.413778107330361e-004,3.171329e+000,2.573647e+000
1.433778107330364e-004,3.169350e+000,2.016399e+000
1.453778107330366e-004,3.166216e+000,1.427287e+000
1.473778107330369e-004,3.161876e+000,8.156109e-001
1.493778107330371e-004,3.156606e+000,1.911002e-001
1.494090607330363e-004,3.156514e+000,1.813004e-001
1.494715607330364e-004,3.156319e+000,1.617081e-001
1.494871857330368e-004,3.156270e+000,1.568134e-001
1.495184357330360e-004,3.156172e+000,1.470363e-001
1.495262482330353e-004,3.156147e+000,1.445973e-001
1.495418732330358e-004,3.156098e+000,1.397444e-001
1.495731232330350e-004,3.155999e+000,1.370656e-001
1.496356232330350e-004,3.155803e+000,1.187215e-001
1.496512482330355e-004,3.155754e+000,1.138257e-001
1.496824982330346e-004,3.155656e+000,1.040287e-001
1.497449982330347e-004,3.155462e+000,8.442055e-002
1.498699982330348e-004,3.155078e+000,4.518206e-002
1.501199982330351e-004,3.154329e+000,-3.332565e-002
1.506199982330356e-004,3.152905e+000,-1.903245e-001
1.516199982330348e-004,3.150346e+000,-5.036229e-001
1.536199982330351e-004,3.146072e+000,-1.123009e+000
1.556199982330354e-004,3.142849e+000,-1.724628e+000
1.576199982330356e-004,3.140785e+000,-2.298983e+000
1.596199982330359e-004,3.139813e+000,-2.837014e+000
1.616199982330362e-004,3.139852e+000,-3.330233e+000
1.636199982330364e-004,3.140802e+000,-3.770862e+000
1.656199982330367e-004,3.142549e+000,-4.151952e+000
1.676199982330370e-004,3.144969e+000,-4.467492e+000
1.696199982330372e-004,3.147923e+000,-4.712506e+000
1.716199982330375e-004,3.151266e+000,-4.883130e+000
1.736199982330378e-004,3.154848e+000,-4.976673e+000
1.756199982330380e-004,3.158514e+000,-4.991660e+000
1.775094560913359e-004,3.161912e+000,-4.933426e+000
1.795094560913361e-004,3.165287e+000,-4.796087e+000
1.815094560913364e-004,3.168291e+000,-4.583040e+000
1.835094560913367e-004,3.170774e+000,-4.297645e+000
1.855094560913369e-004,3.172599e+000,-3.944404e+000
1.875094560913372e-004,3.173636e+000,-3.528887e+000
1.895094560913375e-004,3.173772e+000,-3.057649e+000
1.915094560913377e-004,3.172903e+000,-2.538121e+000
1.935094560913380e-004,3.170943e+000,-1.978499e+000
1.955094560913383e-004,3.167825e+000,-1.387611e+000
1.975094560913385e-004,3.163498e+000,-7.747836e-001
1.995094560913388e-004,3.158239e+000,-1.497604e-001
1.995407060913380e-004,3.158147e+000,-1.399561e-001
1.996032060913380e-004,3.157952e+000,-1.203542e-001
1.997282060913382e-004,3.157560e+000,-8.878049e-002
1.999782060913384e-004,3.156781e+000,-1.118103e-002
2.000348767922343e-004,3.156606e+000,6.612054e-003
2.001482181940260e-004,3.156263e+000,4.220256e-002
2.003749009976078e-004,3.155591e+000,1.133854e-001
2.008282666047731e-004,3.154307e+000,2.556817e-001
2.017349978191037e-004,3.151978e+000,5.395497e-001
2.035484602477631e-004,3.148039e+000,1.101103e+000
2.055484602477634e-004,3.144703e+000,1.703524e+000
2.075484602477636e-004,3.142500e+000,2.279012e+000
2.095484602477639e-004,3.141392e+000,2.818492e+000
2.115484602477642e-004,3.141299e+000,3.313453e+000
2.135484602477644e-004,3.142120e+000,3.756089e+000
2.155484602477647e-004,3.143743e+000,4.139418e+000
2.175484602477650e-004,3.146043e+000,4.457395e+000
2.195484602477652e-004,3.148883e+000,4.705005e+000
2.215484602477655e-004,3.152118e+000,4.878343e+000
2.235484602477657e-004,3.155597e+000,4.974676e+000
2.255484602477660e-004,3.159167e+000,4.992484e+000
2.273929997826541e-004,3.162402e+000,4.939039e+000
2.293929997826544e-004,3.165697e+000,4.806186e+000
2.313929997826546e-004,3.168630e+000,4.597467e+000
2.333929997826549e-004,3.171052e+000,4.316172e+000
2.353929997826552e-004,3.172823e+000,3.966739e+000
2.373929997826554e-004,3.173814e+000,3.554678e+000
2.393929997826557e-004,3.173909e+000,3.086489e+000
2.413929997826560e-004,3.173006e+000,2.569556e+000
2.433929997826562e-004,3.171018e+000,2.012032e+000
2.453929997826565e-004,3.167874e+000,1.422713e+000
2.473929997826568e-004,3.163523e+000,8.109020e-001
2.493929997826570e-004,3.158242e+000,1.863340e-001
2.494242497826562e-004,3.158150e+000,1.765347e-001
2.494867497826563e-004,3.157954e+000,1.569456e-001
2.495023747826567e-004,3.157905e+000,1.520529e-001
2.495336247826559e-004,3.157807e+000,1.422887e-001
2.495414372826552e-004,3.157782e+000,1.398608e-001
2.495570622826557e-004,3.157733e+000,1.360149e-001
2.495609685326562e-004,3.157721e+000,1.360222e-001
2.495687810326556e-004,3.157696e+000,1.360274e-001
2.495844060326560e-004,3.157647e+000,1.346728e-001
2.495883122826566e-004,3.157634e+000,1.334793e-001
2.495961247826559e-004,3.157610e+000,1.310602e-001
2.496117497826564e-004,3.157561e+000,1.261884e-001
2.496429997826555e-004,3.157463e+000,1.164092e-001
2.497054997826556e-004,3.157268e+000,9.681403e-002
2.498304997826557e-004,3.156882e+000,5.758384e-002
2.500804997826560e-004,3.156129e+000,-2.091982e-002
2.505804997826565e-004,3.154697e+000,-1.779249e-001
2.515804997826557e-004,3.152123e+000,-4.912761e-001
2.535804997826560e-004,3.147820e+000,-1.110916e+000
2.555804997826563e-004,3.144568e+000,-1.712979e+000
2.575804997826565e-004,3.142476e+000,-2.287961e+000
2.595804997826568e-004,3.141478e+000,-2.826793e+000
2.615804997826571e-004,3.141492e+000,-3.320976e+000
2.635804997826573e-004,3.142420e+000,-3.762713e+000
2.655804997826576e-004,3.144147e+000,-4.145041e+000
2.675804997826579e-004,3.146549e+000,-4.461926e+000
2.695804997826581e-004,3.149488e+000,-4.708375e+000
2.715804997826584e-004,3.152820e+000,-4.880497e+000
2.735804997826587e-004,3.156393e+000,-4.975581e+000
2.755804997826589e-004,3.160054e+000,-4.992126e+000
2.774451576872394e-004,3.163406e+000,-4.936556e+000
2.794451576872397e-004,3.166785e+000,-4.801693e+000
2.814451576872400e-004,3.169797e+000,-4.591034e+000
2.834451576872402e-004,3.172294e+000,-4.307901e+000
2.854451576872405e-004,3.174137e+000,-3.956760e+000
2.874451576872408e-004,3.175197e+000,-3.543149e+000
2.894451576872410e-004,3.175357e+000,-3.073591e+000
2.914451576872413e-004,3.174516e+000,-2.555492e+000
2.934451576872416e-004,3.172588e+000,-1.997024e+000
2.954451576872418e-004,3.169503e+000,-1.406998e+000
2.974451576872421e-004,3.165209e+000,-7.947271e-001
2.994451576872424e-004,3.159946e+000,-1.699337e-001
2.996951576872426e-004,3.159201e+000,-9.163340e-002
2.997029701872420e-004,3.159176e+000,-9.024966e-002
2.997185951872424e-004,3.159127e+000,-9.025904e-002
2.997498451872416e-004,3.159028e+000,-8.280053e-002
2.997576576872409e-004,3.159003e+000,-8.036111e-002
2.997732826872414e-004,3.158954e+000,-7.547353e-002
2.998045326872405e-004,3.158856e+000,-6.568312e-002
2.998670326872406e-004,3.158661e+000,-4.607946e-002
2.999920326872407e-004,3.158276e+000,-6.842710e-003
3.002420326872410e-004,3.157524e+000,7.166109e-002
3.007420326872415e-004,3.156094e+000,2.286258e-001
3.017420326872407e-004,3.153523e+000,5.417450e-001
3.037420326872410e-004,3.149225e+000,1.160324e+000
3.057420326872413e-004,3.145975e+000,1.760547e+000
3.077420326872415e-004,3.143880e+000,2.332940e+000
3.097420326872418e-004,3.142875e+000,2.868473e+000
3.117420326872421e-004,3.142874e+000,3.358698e+000
3.137420326872423e-004,3.143777e+000,3.795884e+000
3.157420326872426e-004,3.145472e+000,4.173137e+000
3.177420326872429e-004,3.147830e+000,4.484505e+000
3.197420326872431e-004,3.150714e+000,4.725079e+000
3.217420326872434e-004,3.153979e+000,4.891065e+000
3.237420326872437e-004,3.157473e+000,4.979844e+000
3.257420326872439e-004,3.161040e+000,4.990017e+000
3.277080966825781e-004,3.164467e+000,4.923241e+000
3.297080966825784e-004,3.167716e+000,4.778265e+000
3.317080966825786e-004,3.170578e+000,4.557864e+000
3.337080966825789e-004,3.172906e+000,4.265511e+000
3.357080966825791e-004,3.174562e+000,3.905819e+000
3.377080966825794e-004,3.175419e+000,3.484460e+000
3.397080966825797e-004,3.175363e+000,3.008080e+000
3.417080966825799e-004,3.174293e+000,2.484192e+000
3.437080966825802e-004,3.172126e+000,1.921061e+000
3.457080966825805e-004,3.168795e+000,1.327570e+000
3.479580966825810e-004,3.163891e+000,6.352860e-001
3.484580966825815e-004,3.162491e+000,4.792278e-001
3.494580966825808e-004,3.159568e+000,1.659201e-001
3.508643729261962e-004,3.155426e+000,-2.669990e-001
3.508857078318960e-004,3.155365e+000,-2.736908e-001
3.515554504202159e-004,3.153643e+000,-4.841133e-001
3.522251930085359e-004,3.152056e+000,-6.928397e-001
3.528949355968559e-004,3.150604e+000,-8.998701e-001
3.535646781851758e-004,3.149287e+000,-1.105205e+000
3.542344207734958e-004,3.148106e+000,-1.308843e+000
3.549041633618158e-004,3.147060e+000,-1.510785e+000
3.555739059501357e-004,3.146150e+000,-1.711031e+000
3.575739059501360e-004,3.144059e+000,-2.286118e+000
3.595739059501363e-004,3.143062e+000,-2.825084e+000
3.615739059501365e-004,3.143078e+000,-3.319427e+000
3.635739059501368e-004,3.144007e+000,-3.761349e+000
3.655739059501371e-004,3.145736e+000,-4.143883e+000
3.675739059501373e-004,3.148140e+000,-4.460994e+000
3.695739059501376e-004,3.151083e+000,-4.707681e+000
3.715739059501379e-004,3.154418e+000,-4.880054e+000
3.735739059501381e-004,3.157995e+000,-4.975395e+000
3.755739059501384e-004,3.161660e+000,-4.992199e+000
3.774344235518996e-004,3.165009e+000,-4.937069e+000
3.794344235518998e-004,3.168394e+000,-4.802620e+000
3.814344235519001e-004,3.171413e+000,-4.592360e+000
3.834344235519004e-004,3.173918e+000,-4.309605e+000
3.854344235519006e-004,3.175768e+000,-3.958815e+000
3.874344235519009e-004,3.176837e+000,-3.545522e+000
3.894344235519012e-004,3.177007e+000,-3.076246e+000
3.914344235519014e-004,3.176176e+000,-2.558386e+000
3.934344235519017e-004,3.174258e+000,-2.000112e+000
3.954344235519020e-004,3.171183e+000,-1.410231e+000
3.974344235519022e-004,3.166900e+000,-7.980536e-001
3.994344235519025e-004,3.161648e+000,-1.732977e-001
3.996844235519027e-004,3.160909e+000,-9.491030e-002
4.001844235519032e-004,3.159361e+000,5.356923e-002
4.002000485519037e-004,3.159314e+000,5.847542e-002
4.004812985519036e-004,3.158482e+000,1.468348e-001
4.007625485519035e-004,3.157681e+000,2.350895e-001
4.010437985519034e-004,3.156911e+000,3.232395e-001
4.013250485519033e-004,3.156172e+000,4.112848e-001
4.016062985519032e-004,3.155463e+000,4.992254e-001
4.018875485519031e-004,3.154784e+000,5.870613e-001
4.021687985519031e-004,3.154137e+000,6.747925e-001
4.041687985519033e-004,3.150091e+000,1.290267e+000
4.061687985519036e-004,3.147085e+000,1.885334e+000
4.081687985519038e-004,3.145222e+000,2.450602e+000
4.101687985519041e-004,3.144431e+000,2.977153e+000
4.121687985519044e-004,3.144625e+000,3.456683e+000
4.141687985519046e-004,3.145700e+000,3.881629e+000
4.161687985519049e-004,3.147540e+000,4.245288e+000
4.181687985519052e-004,3.150015e+000,4.541925e+000
4.201687985519054e-004,3.152986e+000,4.766863e+000
4.221687985519057e-004,3.156306e+000,4.916553e+000
4.241687985519060e-004,3.159822e+000,4.988635e+000
4.261687985519062e-004,3.163377e+000,4.981972e+000
4.281687985519065e-004,3.166816e+000,4.896669e+000
4.301687985519068e-004,3.169983e+000,4.734073e+000
4.321687985519070e-004,3.172727e+000,4.496747e+000
4.341687985519073e-004,3.174905e+000,4.188434e+000
4.361687985519076e-004,3.176381e+000,3.813997e+000
4.381687985519078e-004,3.177030e+000,3.379341e+000
4.401687985519081e-004,3.176742e+000,2.891322e+000
4.421687985519084e-004,3.175420e+000,2.357638e+000
4.441687985519086e-004,3.172983e+000,1.786706e+000
4.461687985519089e-004,3.169369e+000,1.187535e+000
4.481687985519092e-004,3.164802e+000,5.695884e-001
4.484187985519094e-004,3.164138e+000,4.915111e-001
4.489187985519099e-004,3.162697e+000,3.350186e-001
4.490437985519100e-004,3.162326e+000,2.958408e-001
4.492937985519103e-004,3.161564e+000,2.174448e-001
4.497937985519108e-004,3.160024e+000,6.910840e-002
4.498047870087792e-004,3.159990e+000,6.565914e-002
4.499586254049330e-004,3.159520e+000,1.735732e-002
4.501344407148219e-004,3.158993e+000,-3.785717e-002
4.504860713345996e-004,3.157977e+000,-1.482777e-001
4.511893325741569e-004,3.156088e+000,-3.688622e-001
4.525958550532696e-004,3.152795e+000,-8.074423e-001
4.545958550532699e-004,3.149040e+000,-1.419368e+000
4.565958550532701e-004,3.146379e+000,-2.008847e+000
4.585958550532704e-004,3.144847e+000,-2.566578e+000
4.605958550532707e-004,3.144369e+000,-3.083763e+000
4.625958550532709e-004,3.144855e+000,-3.552245e+000
4.645958550532712e-004,3.146199e+000,-3.964636e+000
4.665958550532715e-004,3.148280e+000,-4.314431e+000
4.685958550532717e-004,3.150967e+000,-4.596114e+000
4.705958550532720e-004,3.154119e+000,-4.805242e+000
4.725958550532722e-004,3.157585e+000,-4.938517e+000
4.743497595235107e-004,3.160769e+000,-4.991278e+000
4.762582040130896e-004,3.164253e+000,-4.979831e+000
4.782582040130899e-004,3.167775e+000,-4.891036e+000
4.802582040130902e-004,3.171020e+000,-4.725034e+000
4.822582040130904e-004,3.173835e+000,-4.484446e+000
4.842582040130907e-004,3.176077e+000,-4.173065e+000
4.862582040130910e-004,3.177611e+000,-3.795803e+000
4.882582040130912e-004,3.178313e+000,-3.358608e+000
4.902582040130915e-004,3.178073e+000,-2.868378e+000
4.922582040130918e-004,3.176794e+000,-2.332843e+000
4.942582040130920e-004,3.174398e+000,-1.760452e+000
4.962582040130923e-004,3.170821e+000,-1.160236e+000
4.984759285114552e-004,3.165725e+000,-4.736429e-001
4.990202397573643e-004,3.164169e+000,-3.032115e-001
4.992379642557287e-004,3.163513e+000,-2.349346e-001
4.996734132524557e-004,3.162176e+000,-9.836692e-002
4.997142365958992e-004,3.162048e+000,-8.983884e-002
4.997958832827863e-004,3.161791e+000,-6.839649e-002
4.997984347417522e-004,3.161783e+000,-6.759670e-002
4.998341551672638e-004,3.161671e+000,-5.639645e-002
4.999566251975927e-004,3.161290e+000,-1.796131e-002
5.000000000000004e-004,3.161156e+000,-4.343621e-003
