time,V(vout),V(n001)
0.000000000000000e+000,2.938173e+000,-4.130139e-003
5.185223310122192e-008,2.932321e+000,1.215860e-002
1.037044662024439e-007,2.926525e+000,2.844731e-002
1.555566993036658e-007,2.920785e+000,4.473600e-002
2.074089324048877e-007,2.915101e+000,6.102466e-002
2.592611655061097e-007,2.909473e+000,7.731330e-002
3.111133986073316e-007,2.903902e+000,9.360191e-002
3.629656317085533e-007,2.898386e+000,1.098905e-001
7.376398321809474e-007,2.860172e+000,2.275418e-001
1.486988233127470e-006,2.792152e+000,4.624040e-001
2.985685035020516e-006,2.682550e+000,9.285064e-001
4.985685035020782e-006,2.581074e+000,1.536906e+000
6.985685035021047e-006,2.528924e+000,2.120960e+000
8.985685035021312e-006,2.523653e+000,2.671462e+000
1.098568503502158e-005,2.558749e+000,3.179735e+000
1.298568503502184e-005,2.627559e+000,3.637768e+000
1.498568503502211e-005,2.723352e+000,4.038342e+000
1.698568503502237e-005,2.839393e+000,4.375146e+000
1.898568503502264e-005,2.969017e+000,4.642872e+000
2.098568503502291e-005,3.105704e+000,4.837303e+000
2.298568503502317e-005,3.243615e+000,4.955375e+000
2.449467939157242e-005,3.344539e+000,4.992745e+000
2.631212835202228e-005,3.457881e+000,4.978168e+000
2.831212835202254e-005,3.568830e+000,4.887158e+000
3.031212835202281e-005,3.660808e+000,4.719016e+000
3.231212835202307e-005,3.729198e+000,4.476398e+000
3.431212835202334e-005,3.770245e+000,4.163132e+000
3.631212835202360e-005,3.780824e+000,3.784161e+000
3.831212835202387e-005,3.758472e+000,3.345465e+000
4.031212835202414e-005,3.701416e+000,2.853965e+000
4.231212835202440e-005,3.608588e+000,2.317415e+000
4.431212835202467e-005,3.479626e+000,1.744280e+000
4.631212835202493e-005,3.314878e+000,1.143604e+000
4.831212835202520e-005,3.122501e+000,5.248795e-001
4.856212835202545e-005,3.095864e+000,4.467575e-001
4.906212835202595e-005,3.039623e+000,2.902117e-001
5.006212835202521e-005,2.926521e+000,-1.538578e-002
5.007688312121117e-005,2.924865e+000,-2.002102e-002
5.034246896654426e-005,2.896067e+000,-1.034936e-001
5.060805481187736e-005,2.868671e+000,-1.868872e-001
5.087364065721045e-005,2.842677e+000,-2.702018e-001
5.113922650254355e-005,2.818085e+000,-3.534374e-001
5.140481234787665e-005,2.794894e+000,-4.365941e-001
5.167039819320975e-005,2.773106e+000,-5.196717e-001
5.193598403854284e-005,2.752719e+000,-6.026704e-001
5.382459449424469e-005,2.632213e+000,-1.186060e+000
5.582459449424496e-005,2.551904e+000,-1.785396e+000
5.782459449424522e-005,2.521246e+000,-2.356469e+000
5.982459449424549e-005,2.534675e+000,-2.890279e+000
6.182459449424575e-005,2.585621e+000,-3.378410e+000
6.382459449424602e-005,2.667393e+000,-3.813170e+000
6.582459449424628e-005,2.773256e+000,-4.187707e+000
6.782459449424655e-005,2.896499e+000,-4.496120e+000
6.982459449424681e-005,3.030514e+000,-4.733550e+000
7.182459449424708e-005,3.168868e+000,-4.896255e+000
7.382459449424735e-005,3.305384e+000,-4.981675e+000
7.582459449424761e-005,3.434209e+000,-4.988464e+000
7.782459449424788e-005,3.549886e+000,-4.916521e+000
7.982459449424814e-005,3.647420e+000,-4.766983e+000
8.182459449424841e-005,3.722338e+000,-4.542210e+000
8.382459449424867e-005,3.770739e+000,-4.245751e+000
8.582459449424894e-005,3.789344e+000,-3.882283e+000
8.782459449424920e-005,3.775527e+000,-3.457542e+000
8.982459449424947e-005,3.727349e+000,-2.978229e+000
9.182459449424973e-005,3.643569e+000,-2.451905e+000
9.382459449425000e-005,3.523656e+000,-1.886874e+000
9.582459449425027e-005,3.367787e+000,-1.292051e+000
9.807459449425078e-005,3.158479e+000,-5.989773e-001
9.857459449425128e-005,3.103376e+000,-4.428474e-001
9.957459449425055e-005,2.991474e+000,-1.295263e-001
1.008947809478765e-004,2.846488e+000,2.768487e-001
1.009145808898715e-004,2.844445e+000,2.830602e-001
1.015566941314955e-004,2.787160e+000,4.847775e-001
1.021988073731195e-004,2.735875e+000,6.849663e-001
1.028409206147435e-004,2.690592e+000,8.836263e-001
1.034830338563676e-004,2.651308e+000,1.080758e+000
1.041251470979916e-004,2.618026e+000,1.276361e+000
1.047672603396156e-004,2.590743e+000,1.470435e+000
1.054093735812396e-004,2.569462e+000,1.662980e+000
1.074093735812399e-004,2.527936e+000,2.240679e+000
1.094093735812401e-004,2.531911e+000,2.782939e+000
1.114093735812404e-004,2.574843e+000,3.281213e+000
1.134093735812407e-004,2.650055e+000,3.727647e+000
1.154093735812409e-004,2.750812e+000,4.115207e+000
1.174093735812412e-004,2.870386e+000,4.437784e+000
1.194093735812415e-004,3.002139e+000,4.690297e+000
1.214093735812417e-004,3.139591e+000,4.868767e+000
1.234093735812420e-004,3.276778e+000,4.970383e+000
1.251665622265460e-004,3.392612e+000,4.994943e+000
1.267712144496416e-004,3.490088e+000,4.964188e+000
1.287712144496418e-004,3.596698e+000,4.855300e+000
1.307712144496421e-004,3.683681e+000,4.669785e+000
1.327712144496424e-004,3.746156e+000,4.410570e+000
1.347712144496426e-004,3.780509e+000,4.081746e+000
1.367712144496429e-004,3.783765e+000,3.688501e+000
1.387712144496432e-004,3.753617e+000,3.237040e+000
1.407712144496434e-004,3.688453e+000,2.734486e+000
1.427712144496437e-004,3.587367e+000,2.188766e+000
1.447712144496439e-004,3.450163e+000,1.608491e+000
1.467712144496442e-004,3.277347e+000,1.002820e+000
1.487712144496445e-004,3.076977e+000,3.813304e-001
1.507712144496447e-004,2.865426e+000,-2.380685e-001
1.508019676030887e-004,2.862256e+000,-2.477197e-001
1.513555243650951e-004,2.811164e+000,-4.215820e-001
1.519090811271015e-004,2.764764e+000,-5.944705e-001
1.524626378891079e-004,2.723055e+000,-7.663851e-001
1.530161946511143e-004,2.686038e+000,-9.373258e-001
1.535697514131207e-004,2.653712e+000,-1.107293e+000
1.541233081751271e-004,2.626077e+000,-1.276286e+000
1.546768649371335e-004,2.603134e+000,-1.444305e+000
1.566768649371338e-004,2.543329e+000,-2.032731e+000
1.586768649371340e-004,2.531167e+000,-2.588995e+000
1.606768649371343e-004,2.560393e+000,-3.104330e+000
1.626768649371346e-004,2.624370e+000,-3.570613e+000
1.646768649371348e-004,2.716376e+000,-3.980496e+000
1.666768649371351e-004,2.829670e+000,-4.327520e+000
1.686768649371354e-004,2.957572e+000,-4.606215e+000
1.706768649371356e-004,3.093534e+000,-4.812193e+000
1.726768649371359e-004,3.231473e+000,-4.942208e+000
1.743798827364244e-004,3.345780e+000,-4.991469e+000
1.762694153270624e-004,3.464164e+000,-4.979249e+000
1.782694153270627e-004,3.575545e+000,-4.889906e+000
1.802694153270629e-004,3.667944e+000,-4.723388e+000
1.822694153270632e-004,3.736844e+000,-4.482325e+000
1.842694153270635e-004,3.778477e+000,-4.170519e+000
1.862694153270637e-004,3.789702e+000,-3.792893e+000
1.882694153270640e-004,3.768043e+000,-3.355403e+000
1.902694153270643e-004,3.711711e+000,-2.864953e+000
1.922694153270645e-004,3.619623e+000,-2.329278e+000
1.942694153270648e-004,3.491404e+000,-1.756832e+000
1.962694153270651e-004,3.327384e+000,-1.156647e+000
1.982694153270653e-004,3.135715e+000,-5.382051e-001
1.985194153270656e-004,3.109165e+000,-4.601033e-001
1.990194153270661e-004,3.053036e+000,-3.035865e-001
1.991444153270662e-004,3.038728e+000,-2.644080e-001
1.993944153270665e-004,3.009641e+000,-1.860181e-001
1.994569153270665e-004,3.002302e+000,-1.664187e-001
1.995819153270666e-004,2.987507e+000,-1.272467e-001
1.996131653270658e-004,2.983794e+000,-1.174864e-001
1.996209778270652e-004,2.982863e+000,-1.150609e-001
1.996366028270656e-004,2.981000e+000,-1.115639e-001
1.996405090770662e-004,2.980535e+000,-1.115692e-001
1.996483215770655e-004,2.979604e+000,-1.115702e-001
1.996639465770660e-004,2.977743e+000,-1.095330e-001
1.996678528270665e-004,2.977278e+000,-1.083299e-001
1.996756653270659e-004,2.976349e+000,-1.059041e-001
1.996912903270663e-004,2.974496e+000,-1.010268e-001
1.997225403270655e-004,2.970806e+000,-9.124101e-002
1.997850403270655e-004,2.963487e+000,-7.163600e-002
1.999100403270657e-004,2.949099e+000,-3.238888e-002
2.001600403270659e-004,2.921310e+000,4.614255e-002
2.006600403270664e-004,2.869605e+000,2.031812e-001
2.016600403270657e-004,2.781069e+000,5.165136e-001
2.036600403270659e-004,2.645529e+000,1.135776e+000
2.056600403270662e-004,2.559115e+000,1.737023e+000
2.076600403270665e-004,2.523761e+000,2.310769e+000
2.096600403270667e-004,2.533088e+000,2.847972e+000
2.116600403270670e-004,2.580533e+000,3.340163e+000
2.136600403270673e-004,2.659409e+000,3.779585e+000
2.156600403270675e-004,2.762977e+000,4.159315e+000
2.176600403270678e-004,2.884518e+000,4.473367e+000
2.196600403270681e-004,3.017409e+000,4.716794e+000
2.216600403270683e-004,3.155199e+000,4.885762e+000
2.236600403270686e-004,3.291681e+000,4.977608e+000
2.256600403270689e-004,3.421135e+000,4.990888e+000
2.275746370282803e-004,3.533121e+000,4.929794e+000
2.295746370282806e-004,3.632691e+000,4.789849e+000
2.315746370282808e-004,3.710361e+000,4.574309e+000
2.335746370282811e-004,3.761993e+000,4.286577e+000
2.355746370282814e-004,3.784225e+000,3.931191e+000
2.375746370282816e-004,3.774348e+000,3.513761e+000
2.395746370282819e-004,3.730331e+000,3.040871e+000
2.415746370282822e-004,3.650846e+000,2.519983e+000
2.435746370282824e-004,3.535273e+000,1.959313e+000
2.455746370282827e-004,3.383698e+000,1.367709e+000
2.475746370282830e-004,3.196907e+000,7.545121e-001
2.495746370282832e-004,2.988148e+000,1.295392e-001
2.515746370282835e-004,2.778828e+000,-4.898179e-001
2.516058870282827e-004,2.775879e+000,-4.995883e-001
2.521683870282827e-004,2.731590e+000,-6.754307e-001
2.527308870282828e-004,2.691917e+000,-8.499461e-001
2.532933870282829e-004,2.656860e+000,-1.023135e+000
2.538558870282829e-004,2.626418e+000,-1.194996e+000
2.544183870282830e-004,2.600593e+000,-1.365531e+000
2.549808870282831e-004,2.579383e+000,-1.534738e+000
2.555433870282831e-004,2.562790e+000,-1.702619e+000
2.575433870282834e-004,2.525480e+000,-2.278222e+000
2.595433870282837e-004,2.533165e+000,-2.817794e+000
2.615433870282839e-004,2.579292e+000,-3.312830e+000
2.635433870282842e-004,2.657187e+000,-3.755528e+000
2.655433870282845e-004,2.760116e+000,-4.138913e+000
2.675433870282847e-004,2.881360e+000,-4.456942e+000
2.695433870282850e-004,3.014291e+000,-4.704605e+000
2.715433870282853e-004,3.152450e+000,-4.877999e+000
2.735433870282855e-004,3.289618e+000,-4.974394e+000
2.755433870282858e-004,3.420188e+000,-4.992274e+000
2.773847408404345e-004,3.529335e+000,-4.939055e+000
2.793847408404347e-004,3.630987e+000,-4.806422e+000
2.813847408404350e-004,3.711251e+000,-4.597931e+000
2.833847408404353e-004,3.765803e+000,-4.316875e+000
2.853847408404355e-004,3.791224e+000,-3.967688e+000
2.873847408404358e-004,3.784740e+000,-3.555880e+000
2.893847408404360e-004,3.744260e+000,-3.087948e+000
2.913847408404363e-004,3.668390e+000,-2.571275e+000
2.933847408404366e-004,3.556441e+000,-2.014011e+000
2.953847408404368e-004,3.408436e+000,-1.424949e+000
2.973847408404371e-004,3.225096e+000,-8.133894e-001
2.993847408404374e-004,3.014688e+000,-1.890424e-001
2.996347408404376e-004,2.986358e+000,-1.107040e-001
3.001347408404381e-004,2.928412e+000,3.819172e-002
3.001503658404386e-004,2.926645e+000,4.310016e-002
3.004316158404385e-004,2.896291e+000,1.314949e-001
3.007128658404384e-004,2.867502e+000,2.197884e-001
3.009941158404383e-004,2.840278e+000,3.079809e-001
3.012753658404382e-004,2.814619e+000,3.960723e-001
3.015566158404381e-004,2.790524e+000,4.840626e-001
3.018378658404380e-004,2.767993e+000,5.719518e-001
3.021191158404379e-004,2.747027e+000,6.597399e-001
3.041191158404382e-004,2.624255e+000,1.275724e+000
3.061191158404385e-004,2.549435e+000,1.871484e+000
3.081191158404387e-004,2.524282e+000,2.437624e+000
3.101191158404390e-004,2.542367e+000,2.965220e+000
3.121191158404393e-004,2.597086e+000,3.445957e+000
3.141191158404395e-004,2.681733e+000,3.872258e+000
3.161191158404398e-004,2.789563e+000,4.237406e+000
3.181191158404401e-004,2.913870e+000,4.535646e+000
3.201191158404403e-004,3.048061e+000,4.762280e+000
3.221191158404406e-004,3.185731e+000,4.913736e+000
3.241191158404409e-004,3.320740e+000,4.987632e+000
3.261191158404411e-004,3.447285e+000,4.982805e+000
3.281191158404414e-004,3.559969e+000,4.899334e+000
3.301191158404417e-004,3.653866e+000,4.738540e+000
3.321191158404419e-004,3.724580e+000,4.502961e+000
3.341191158404422e-004,3.768297e+000,4.196315e+000
3.361191158404425e-004,3.781827e+000,3.823440e+000
3.381191158404427e-004,3.762643e+000,3.390221e+000
3.401191158404430e-004,3.708903e+000,2.903491e+000
3.421191158404432e-004,3.619469e+000,2.370929e+000
3.441191158404435e-004,3.493912e+000,1.800939e+000
3.461191158404438e-004,3.332511e+000,1.202514e+000
3.481191158404440e-004,3.143399e+000,5.851073e-001
3.488691158404448e-004,3.061639e+000,3.506824e-001
3.492441158404452e-004,3.018695e+000,2.331622e-001
3.494316158404454e-004,2.996783e+000,1.743686e-001
3.494628658404445e-004,2.993104e+000,1.645710e-001
3.495253658404446e-004,2.985718e+000,1.449838e-001
3.495409908404450e-004,2.983867e+000,1.400903e-001
3.495722408404442e-004,2.980159e+000,1.303159e-001
3.495800533404436e-004,2.979231e+000,1.278775e-001
3.495956783404440e-004,2.977372e+000,1.230260e-001
3.496269283404432e-004,2.973661e+000,1.203444e-001
3.496894283404432e-004,2.966258e+000,1.016329e-001
3.497050533404437e-004,2.964417e+000,9.673525e-002
3.497363033404428e-004,2.960755e+000,8.693390e-002
3.497988033404429e-004,2.953494e+000,6.731731e-002
3.499238033404430e-004,2.939220e+000,2.806329e-002
3.501738033404433e-004,2.911657e+000,-5.047134e-002
3.506738033404438e-004,2.860397e+000,-2.075083e-001
3.516738033404430e-004,2.772717e+000,-5.208210e-001
3.536738033404433e-004,2.638795e+000,-1.139992e+000
3.556738033404436e-004,2.553882e+000,-1.741080e+000
3.576738033404438e-004,2.519900e+000,-2.314605e+000
3.596738033404441e-004,2.530475e+000,-2.851524e+000
3.616738033404444e-004,2.579048e+000,-3.343377e+000
3.636738033404446e-004,2.658938e+000,-3.782411e+000
3.656738033404449e-004,2.763410e+000,-4.161707e+000
3.676738033404452e-004,2.885751e+000,-4.475288e+000
3.696738033404454e-004,3.019344e+000,-4.718215e+000
3.716738033404457e-004,3.157741e+000,-4.886658e+000
3.736738033404460e-004,3.294743e+000,-4.977966e+000
3.756738033404462e-004,3.424619e+000,-4.990704e+000
3.775970400065505e-004,3.537424e+000,-4.928651e+000
3.795970400065508e-004,3.637219e+000,-4.787845e+000
3.815970400065510e-004,3.715017e+000,-4.571475e+000
3.835970400065513e-004,3.766705e+000,-4.282957e+000
3.855970400065516e-004,3.788929e+000,-3.926843e+000
3.875970400065518e-004,3.778991e+000,-3.508753e+000
3.895970400065521e-004,3.734869e+000,-3.035282e+000
3.915970400065524e-004,3.655246e+000,-2.513901e+000
3.935970400065526e-004,3.539510e+000,-1.952835e+000
3.955970400065529e-004,3.387758e+000,-1.360936e+000
3.975970400065532e-004,3.200786e+000,-7.475508e-001
3.995970400065534e-004,2.991818e+000,-1.224950e-001
4.015970400065537e-004,2.782233e+000,4.968174e-001
4.016277451502782e-004,2.779329e+000,5.064165e-001
4.024661520230404e-004,2.716461e+000,7.690568e-001
4.033045588958026e-004,2.662596e+000,1.027899e+000
4.041429657685648e-004,2.617733e+000,1.282942e+000
4.049813726413270e-004,2.581872e+000,1.534186e+000
4.058197795140892e-004,2.555013e+000,1.781633e+000
4.066581863868514e-004,2.537157e+000,2.025280e+000
4.074965932596136e-004,2.528302e+000,2.265129e+000
4.094965932596138e-004,2.534168e+000,2.805645e+000
4.114965932596141e-004,2.578696e+000,3.301816e+000
4.134965932596144e-004,2.655208e+000,3.745823e+000
4.154965932596146e-004,2.756966e+000,4.130669e+000
4.174965932596149e-004,2.877247e+000,4.450289e+000
4.194965932596152e-004,3.009417e+000,4.699647e+000
4.214965932596154e-004,3.147007e+000,4.874815e+000
4.234965932596157e-004,3.283787e+000,4.973035e+000
4.254965932596160e-004,3.414191e+000,4.992761e+000
4.273085613813211e-004,3.521652e+000,4.942579e+000
4.293085613813214e-004,3.623613e+000,4.812884e+000
4.313085613813217e-004,3.704432e+000,4.607231e+000
4.333085613813219e-004,3.759708e+000,4.328865e+000
4.353085613813222e-004,3.785996e+000,3.982179e+000
4.373085613813225e-004,3.780499e+000,3.572643e+000
4.393085613813227e-004,3.741093e+000,3.106719e+000
4.413085613813230e-004,3.666357e+000,2.591758e+000
4.433085613813233e-004,3.555574e+000,2.035883e+000
4.453085613813235e-004,3.408739e+000,1.447865e+000
4.473085613813238e-004,3.226545e+000,8.369876e-001
4.493085613813241e-004,3.017248e+000,2.129433e-001
4.495585613813243e-004,2.988718e+000,1.345617e-001
4.496210613813244e-004,2.981300e+000,1.150527e-001
4.497460613813245e-004,2.966493e+000,8.386683e-002
4.497499676313251e-004,2.966033e+000,8.264153e-002
4.498046551313240e-004,2.959644e+000,6.547941e-002
4.498671551313241e-004,2.952420e+000,4.585648e-002
4.499921551313242e-004,2.938220e+000,6.596233e-003
4.502421551313245e-004,2.910803e+000,-7.193985e-002
4.507421551313250e-004,2.859829e+000,-2.289586e-001
4.517421551313242e-004,2.772698e+000,-5.421697e-001
4.537421551313245e-004,2.639790e+000,-1.160884e+000
4.557421551313248e-004,2.555779e+000,-1.761185e+000
4.577421551313250e-004,2.522555e+000,-2.333605e+000
4.597421551313253e-004,2.533734e+000,-2.869122e+000
4.617421551313256e-004,2.582746e+000,-3.359294e+000
4.637421551313258e-004,2.662901e+000,-3.796396e+000
4.657421551313261e-004,2.767462e+000,-4.173540e+000
4.677421551313264e-004,2.889713e+000,-4.484782e+000
4.697421551313266e-004,3.023035e+000,-4.725220e+000
4.717421551313269e-004,3.160988e+000,-4.891065e+000
4.737421551313271e-004,3.297378e+000,-4.979705e+000
4.757421551313274e-004,3.426401e+000,-4.989747e+000
4.777082959769325e-004,3.540635e+000,-4.922850e+000
4.797082959769328e-004,3.639035e+000,-4.777770e+000
4.817082959769330e-004,3.715148e+000,-4.557287e+000
4.837082959769333e-004,3.764974e+000,-4.264879e+000
4.857082959769336e-004,3.785194e+000,-3.905161e+000
4.877082959769338e-004,3.773142e+000,-3.483809e+000
4.897082959769341e-004,3.726836e+000,-3.007469e+000
4.917082959769344e-004,3.644995e+000,-2.483658e+000
4.937082959769346e-004,3.527045e+000,-1.920639e+000
4.957082959769349e-004,3.373121e+000,-1.327296e+000
4.979582959769354e-004,3.165954e+000,-6.352196e-001
4.984582959769359e-004,3.111305e+000,-4.792126e-001
4.994582959769352e-004,2.998430e+000,-1.659916e-001
4.995260089798188e-004,2.990561e+000,-1.447650e-001
4.995429372305401e-004,2.988555e+000,-1.394609e-001
4.995767937319810e-004,2.984536e+000,-1.288604e-001
4.996445067348646e-004,2.976509e+000,-1.137128e-001
4.997799327406318e-004,2.960533e+000,-7.323880e-002
4.998074411480535e-004,2.957319e+000,-6.460384e-002
4.999724915925787e-004,2.938355e+000,-1.277137e-002
5.000000000000004e-004,-1.#IND00e+000,-1.#IND00e+000
